






                              *****************************************

                                SUPER NUMERICAL ELECTROMAGNETICS CODE  

                              *****************************************




                                    - - - - COMMENTS - - - -


                         Computer generated SuperNEC file
                         The model has : 1 segments
                                         4 plates
                                         0 cylinders
                                         no symmetry
                         




                                - - - STRUCTURE SPECIFICATION - - -

                                    COORDINATES MUST BE INPUT IN
                                    METERS OR BE SCALED TO METERS
                                    BEFORE STRUCTURE INPUT IS ENDED


 WIRE                                                                               NO. OF    FIRST  LAST     TAG
 NO.        X1         Y1         Z1          X2         Y2         Z2      RADIUS   SEG.     SEG.   SEG.     NO.
    1   -0.35000    0.00000    0.00000    -0.05000    0.00000    0.00000    0.00100      1        1     1       1 

	 -------------------------- UTD PLATE GEOMETRY -------------------------- 

		Transparent thin dielectric slab 
			Dielectric layer number : 1
			Thickness                      = 1.000000 
			Conductivity                   = 10000000.000000 
			Relative permittivity          = 1.000000 
			Relative permeability          = 1.000000 

		Plate has 4 edges 
		Coordinates of corner 1 : ( 1.00, -2.00, -1.00) active
		Coordinates of corner 2 : ( 1.00,  2.00, -1.00) active
		Coordinates of corner 3 : ( 1.00,  2.00, 14.00) active
		Coordinates of corner 4 : ( 1.00, -2.00, 14.00) active

	 ------------------------------------------------------------------------ 


	 -------------------------- UTD PLATE GEOMETRY -------------------------- 

		Transparent thin dielectric slab 
			Dielectric layer number : 1
			Thickness                      = 1.000000 
			Conductivity                   = 10000000.000000 
			Relative permittivity          = 1.000000 
			Relative permeability          = 1.000000 

		Plate has 4 edges 
		Coordinates of corner 1 : ( 1.00,  2.00, -1.00) active
		Coordinates of corner 2 : (-1.00,  2.00, -1.00) active
		Coordinates of corner 3 : (-1.00,  2.00, 14.00) active
		Coordinates of corner 4 : ( 1.00,  2.00, 14.00) active

	 ------------------------------------------------------------------------ 


	 -------------------------- UTD PLATE GEOMETRY -------------------------- 

		Transparent thin dielectric slab 
			Dielectric layer number : 1
			Thickness                      = 1.000000 
			Conductivity                   = 10000000.000000 
			Relative permittivity          = 1.000000 
			Relative permeability          = 1.000000 

		Plate has 4 edges 
		Coordinates of corner 1 : (-1.00,  2.00, -1.00) active
		Coordinates of corner 2 : (-1.00, -2.00, -1.00) active
		Coordinates of corner 3 : (-1.00, -2.00, 14.00) active
		Coordinates of corner 4 : (-1.00,  2.00, 14.00) active

	 ------------------------------------------------------------------------ 


	 -------------------------- UTD PLATE GEOMETRY -------------------------- 

		Transparent thin dielectric slab 
			Dielectric layer number : 1
			Thickness                      = 1.000000 
			Conductivity                   = 10000000.000000 
			Relative permittivity          = 1.000000 
			Relative permeability          = 1.000000 

		Plate has 4 edges 
		Coordinates of corner 1 : (-1.00, -2.00, -1.00) active
		Coordinates of corner 2 : ( 1.00, -2.00, -1.00) active
		Coordinates of corner 3 : ( 1.00, -2.00, 14.00) active
		Coordinates of corner 4 : (-1.00, -2.00, 14.00) active

	 ------------------------------------------------------------------------ 



***** DATA CARD NO.  1   EK  -1     0     0     0  0.00000E+000 0.00000E+000 0.00000E+000 0.00000E+000 0.00000E+000 0.00000E+000   
***** DATA CARD NO.  2   KH   0     0     0     0  1.00000E+000 0.00000E+000 0.00000E+000 0.00000E+000 0.00000E+000 0.00000E+000   
***** DATA CARD NO.  3   PT  -2    -1    -1    -1  0.00000E+000 0.00000E+000 0.00000E+000 0.00000E+000 0.00000E+000 0.00000E+000   
***** DATA CARD NO.  4   PQ   0     0     0     0  0.00000E+000 0.00000E+000 0.00000E+000 0.00000E+000 0.00000E+000 0.00000E+000   
***** DATA CARD NO.  5   FC   1     0     0     0  0.00000E+000 0.00000E+000 0.00000E+000 0.00000E+000 0.00000E+000 0.00000E+000   
***** DATA CARD NO.  6   FC   1     1     1     0  0.00000E+000 0.00000E+000 0.00000E+000 0.00000E+000 0.00000E+000 0.00000E+000   
***** DATA CARD NO.  7   FC   0     0     0     0  0.00000E+000 0.00000E+000 0.00000E+000 0.00000E+000 0.00000E+000 0.00000E+000   
***** DATA CARD NO.  8   FC   1     1     0     0  0.00000E+000 0.00000E+000 0.00000E+000 0.00000E+000 0.00000E+000 0.00000E+000   
***** DATA CARD NO.  9   FC   1     1     0     0  0.00000E+000 0.00000E+000 0.00000E+000 0.00000E+000 0.00000E+000 0.00000E+000   
***** DATA CARD NO. 10   FC   1     1     0     0  0.00000E+000 0.00000E+000 0.00000E+000 0.00000E+000 0.00000E+000 0.00000E+000   



	 ----------------------- UTD FIELD COMPONENTS ------------------------ 

		General :
			Direct field

		Plate Field Components :
			Slope diffraction
			Corner diffraction
			Single reflection
			Double reflection

		Triple Plate Field Components :
			None

		Cylinder End Cap Field Components :
			Diffraction
			Reflection

		Cylinder Field Components :
			Single reflection
			Single diffraction

		Cylinder - Plate Field Components :
			Plate reflection - cylinder reflection
			Cylinder reflection - plate reflection

	 ------------------------------------------------------------------------ 

***** DATA CARD NO. 11   FR   0     1     0     0  5.00000E+002 0.00000E+000 0.00000E+000 0.00000E+000 0.00000E+000 0.00000E+000   
***** DATA CARD NO. 12   EX   0     1     1     0  1.00000E+000 0.00000E+000 0.00000E+000 0.00000E+000 0.00000E+000 0.00000E+000   
***** DATA CARD NO. 13   XQ   0     0     0     0  0.00000E+000 0.00000E+000 0.00000E+000 0.00000E+000 0.00000E+000 0.00000E+000   

	 ----------------------------- PLATE CONNECTIONS ------------------------ 

		Plate 1 edge 2 joined to plate 2 edge 4
		Plate 1 edge 4 joined to plate 4 edge 2
		Plate 2 edge 2 joined to plate 3 edge 4
		Plate 3 edge 2 joined to plate 4 edge 4

	 ------------------------------------------------------------------------ 


    TOTAL SEGMENTS USED=    1     NO. SEG. IN A SYMMETRIC CELL=    1     SYMMETRY FLAG=  0


        - MULTIPLE WIRE JUNCTIONS -
JUNCTION    SEGMENTS  (- FOR END 1, + FOR END 2)
 NONE



                                - - - - SEGMENTATION DATA - - - -

                                       COORDINATES IN METERS

                        I+ AND I- INDICATE THE SEGMENTS BEFORE AND AFTER I


 SEG.   COORDINATES OF SEG. CENTER     SEG.     ORIENTATION ANGLES    WIRE    CONNECTION DATA   TAG
 NO.       X         Y         Z       LENGTH     ALPHA     BETA      RADIUS    I-   I    I+    NO.
    1  -0.20000   0.00000   0.00000   0.30000    0.00000   0.00000   0.00100     0    1    0      1










                                    - - - - PLATE DATA - - - -

                                       COORDINATES IN METERS

		Plate 1 has 4 edges and 1 dielectric layers 
		Plate transparent : TRUE 

			Dielectric layer number : 1
			Thickness                      = 1.000000 
			Conductivity                   = 10000000.000000 
			Relative permittivity          = 1.000000 
			Relative permeability          = 1.000000 

		Coordinates of corner 1 :   1.00  -2.00  -1.00  active
		Coordinates of corner 2 :   1.00   2.00  -1.00  active
		Coordinates of corner 3 :   1.00   2.00   14.00  active
		Coordinates of corner 4 :   1.00  -2.00   14.00  active

		Plate 2 has 4 edges and 1 dielectric layers 
		Plate transparent : TRUE 

			Dielectric layer number : 1
			Thickness                      = 1.000000 
			Conductivity                   = 10000000.000000 
			Relative permittivity          = 1.000000 
			Relative permeability          = 1.000000 

		Coordinates of corner 1 :   1.00   2.00  -1.00  active
		Coordinates of corner 2 :  -1.00   2.00  -1.00  active
		Coordinates of corner 3 :  -1.00   2.00   14.00  active
		Coordinates of corner 4 :   1.00   2.00   14.00  inactive

		Plate 3 has 4 edges and 1 dielectric layers 
		Plate transparent : TRUE 

			Dielectric layer number : 1
			Thickness                      = 1.000000 
			Conductivity                   = 10000000.000000 
			Relative permittivity          = 1.000000 
			Relative permeability          = 1.000000 

		Coordinates of corner 1 :  -1.00   2.00  -1.00  active
		Coordinates of corner 2 :  -1.00  -2.00  -1.00  active
		Coordinates of corner 3 :  -1.00  -2.00   14.00  active
		Coordinates of corner 4 :  -1.00   2.00   14.00  inactive

		Plate 4 has 4 edges and 1 dielectric layers 
		Plate transparent : TRUE 

			Dielectric layer number : 1
			Thickness                      = 1.000000 
			Conductivity                   = 10000000.000000 
			Relative permittivity          = 1.000000 
			Relative permeability          = 1.000000 

		Coordinates of corner 1 :  -1.00  -2.00  -1.00  active
		Coordinates of corner 2 :   1.00  -2.00  -1.00  inactive
		Coordinates of corner 3 :   1.00  -2.00   14.00  active
		Coordinates of corner 4 :  -1.00  -2.00   14.00  inactive





                                  - - - - CYLINDER DATA - - - -

                                       COORDINATES IN METERS









                                - - - - - - FREQUENCY - - - - - -

                                   FREQUENCY= 5.0000E+002 MHZ 
                                   WAVELENGTH= 5.9960E-001 METERS 




                   APPROXIMATE INTEGRATION EMPLOYED FOR SEGMENTS MORE THAN    1.000 WAVELENGTHS APART



                              - - - STRUCTURE IMPEDANCE LOADING - - -

                                  THIS STRUCTURE IS NOT LOADED



                                 - - - ANTENNA ENVIRONMENT - - -

                                           FREE SPACE



                               - - - MATRIX TIMING - - -

                       FILL=    0.000 SEC.,  FACTOR=    0.000 SEC.



                                         - - - ANTENNA INPUT PARAMETERS - - -

  TAG   SEG.    VOLTAGE (VOLTS)         CURRENT (AMPS)         IMPEDANCE (OHMS)        ADMITTANCE (MHOS)      POWER
  NO.   NO.    REAL        IMAG.       REAL        IMAG.       REAL        IMAG.       REAL        IMAG.     (WATTS)
    1     1 1.0000E+000 0.0000E+000 7.5654E-003-3.5648E-004 1.3189E+002 6.2146E+000 7.5654E-003-3.5648E-004 3.7827E-003 



                            - - - CURRENTS AND LOCATION - - -

                                DISTANCES IN WAVELENGTHS


 SEG.  TAG    COORD. OF SEG. CENTER     SEG.            - - - CURRENT (AMPS) - - -
 NO.   NO.     X        Y        Z      LENGTH     REAL        IMAG.       MAG.        PHASE
    1    1  -0.3336   0.0000   0.0000  0.50033   7.565E-003 -3.565E-004  7.574E-003    -2.698 



                                 - - - CHARGE DENSITIES - - -

                                   DISTANCES IN WAVELENGTHS


 SEG.  TAG    COORD. OF SEG. CENTER     SEG.          CHARGE DENSITY (COULOMBS/METER)
 NO.   NO.     X        Y        Z      LENGTH     REAL        IMAG.       MAG.        PHASE
    1    1  -0.3336   0.0000   0.0000  0.50033  -0.000E+000  0.000E+000  0.000E+000    0.000 





                                       - - - POWER BUDGET - - -

                                          INPUT POWER   = 3.7827E-003 WATTS 
                                          RADIATED POWER= 3.7827E-003 WATTS 
                                          STRUCTURE LOSS= 0.0000E+000 WATTS 
                                          NETWORK LOSS  = 0.0000E+000 WATTS 
                                          EFFICIENCY    = 100.00 PERCENT






***** DATA CARD NO. 14   FC   1     0     0     0  0.00000E+000 0.00000E+000 0.00000E+000 0.00000E+000 0.00000E+000 0.00000E+000   
***** DATA CARD NO. 15   FC   1     1     1     0  0.00000E+000 0.00000E+000 0.00000E+000 0.00000E+000 0.00000E+000 0.00000E+000   
***** DATA CARD NO. 16   FC   6     0     0     0  0.00000E+000 0.00000E+000 0.00000E+000 0.00000E+000 0.00000E+000 0.00000E+000   
***** DATA CARD NO. 17   FC   1     1     0     0  0.00000E+000 0.00000E+000 0.00000E+000 0.00000E+000 0.00000E+000 0.00000E+000   
***** DATA CARD NO. 18   FC   1     1     0     0  0.00000E+000 0.00000E+000 0.00000E+000 0.00000E+000 0.00000E+000 0.00000E+000   
***** DATA CARD NO. 19   FC   1     1     0     0  0.00000E+000 0.00000E+000 0.00000E+000 0.00000E+000 0.00000E+000 0.00000E+000   



	 ----------------------- UTD FIELD COMPONENTS ------------------------ 

		General :
			Direct field

		Plate Field Components :
			Slope diffraction
			Corner diffraction
			Single reflection
			Double reflection

		Triple Plate Field Components :
			Reflection - reflection - reflection

		Cylinder End Cap Field Components :
			Diffraction
			Reflection

		Cylinder Field Components :
			Single reflection
			Single diffraction

		Cylinder - Plate Field Components :
			Plate reflection - cylinder reflection
			Cylinder reflection - plate reflection

	 ------------------------------------------------------------------------ 

***** DATA CARD NO. 20   NE   0    71    71     1  -1.00000E+000 -2.00000E+000 5.00000E+000 2.85710E-002 5.71430E-002 0.00000E+000   



                                  - - - NEAR ELECTRIC FIELDS - - -

           -  LOCATION  -                     -  EX  -               -  EY  -               -  EZ  -
       X          Y          Z          MAGNITUDE   PHASE      MAGNITUDE   PHASE      MAGNITUDE   PHASE
     METERS     METERS     METERS        VOLTS/M   DEGREES      VOLTS/M   DEGREES      VOLTS/M   DEGREES
     -1.0000    -2.0000     5.0000     0.000E+000     0.00    0.000E+000     0.00    0.000E+000     0.00 
     -0.9714    -2.0000     5.0000     8.207E-002    60.08    4.368E-003    58.01    1.092E-002    58.03 
     -0.9429    -2.0000     5.0000     8.225E-002    62.46    4.216E-003    60.40    1.054E-002    60.41 
     -0.9143    -2.0000     5.0000     8.243E-002    64.76    4.062E-003    62.70    1.016E-002    62.71 
     -0.8857    -2.0000     5.0000     7.727E-002    66.62    8.051E-003    80.75    5.494E-003   -23.24 
     -0.8571    -2.0000     5.0000     8.276E-002    69.08    3.752E-003    67.03    9.382E-003    67.04 
     -0.8286    -2.0000     5.0000     7.841E-002    68.99    7.078E-003   100.99    9.814E-003    -3.37 
     -0.8000    -2.0000     5.0000     8.306E-002    73.05    3.439E-003    71.00    8.598E-003    71.01 
     -0.7714    -2.0000     5.0000     8.320E-002    74.91    3.280E-003    72.85    8.203E-003    72.87 
     -0.7429    -2.0000     5.0000     6.298E-002    72.50    1.349E-002    78.07    1.200E-002   127.76 
     -0.7143    -2.0000     5.0000     8.347E-002    78.34    2.962E-003    76.29    7.406E-003    76.31 
     -0.6857    -2.0000     5.0000     1.113E-001    74.11    2.416E-002   135.75    1.547E-002    -1.22 
     -0.6571    -2.0000     5.0000     8.371E-002    81.42    2.640E-003    79.37    6.602E-003    79.38 
     -0.6286    -2.0000     5.0000     9.602E-002    74.07    1.400E-002  -164.70    1.686E-002    41.78 
     -0.6000    -2.0000     5.0000     1.269E-001    78.26    2.467E-002    50.46    2.979E-002  -114.77 
     -0.5714    -2.0000     5.0000     7.669E-002    87.14    7.553E-003    60.76    9.847E-003  -144.04 
     -0.5429    -2.0000     5.0000     1.028E-001    78.41    1.577E-002    56.95    3.785E-003  -169.78 
     -0.5143    -2.0000     5.0000     1.089E-001   113.19    1.291E-002    -7.63    1.265E-002   143.66 
     -0.4857    -2.0000     5.0000     8.426E-002    88.49    1.661E-003    86.45    4.153E-003    86.46 
     -0.4572    -2.0000     5.0000     1.078E-001    90.17    9.805E-003   -66.16    7.206E-003   140.68 
     -0.4286    -2.0000     5.0000     8.438E-002    90.12    1.331E-003    88.08    3.328E-003    88.09 
     -0.4000    -2.0000     5.0000     7.332E-002   104.12    1.489E-002    47.76    5.329E-003  -157.73 
     -0.3714    -2.0000     5.0000     8.448E-002    91.39    9.993E-004    89.35    2.499E-003    89.37 
     -0.3429    -2.0000     5.0000     8.452E-002    91.89    8.332E-004    89.85    2.083E-003    89.87 
     -0.3143    -2.0000     5.0000     1.102E-001   112.47    1.183E-002   -17.40    3.076E-002   156.67 
     -0.2857    -2.0000     5.0000     8.458E-002    92.62    5.003E-004    90.58    1.251E-003    90.59 
     -0.2572    -2.0000     5.0000     8.460E-002    92.85    3.336E-004    90.81    8.342E-004    90.82 
     -0.2286    -2.0000     5.0000     1.073E-001   101.65    1.688E-002   -44.16    1.446E-002   134.30 
     -0.2000    -2.0000     5.0000     9.084E-002    98.21    6.567E-003   133.41    1.642E-002   -46.59 
     -0.1714    -2.0000     5.0000     5.663E-002    93.49    1.103E-002   -93.86    2.673E-002    85.99 
     -0.1429    -2.0000     5.0000     6.957E-002   124.49    1.188E-002    39.97    3.078E-002  -137.63 
     -0.1143    -2.0000     5.0000     6.167E-002  -176.46    2.310E-002    53.65    1.786E-002   -65.80 
     -0.0857    -2.0000     5.0000     8.455E-002    92.30    6.667E-004   -89.74    1.667E-003   -89.73 
     -0.0572    -2.0000     5.0000     8.345E-002    87.70    5.114E-003  -160.60    1.205E-002     0.39 
     -0.0286    -2.0000     5.0000     7.592E-002   106.00    1.168E-002    29.10    4.653E-003  -104.54 
     -0.0000    -2.0000     5.0000     9.772E-002    92.47    9.706E-003   175.25    2.530E-002   -18.03 
      0.0286    -2.0000     5.0000     8.578E-002    69.82    1.729E-002    -6.58    1.473E-002  -169.10 
      0.0571    -2.0000     5.0000     1.027E-001    92.22    1.392E-002   100.19    1.650E-002   -83.67 
      0.0857    -2.0000     5.0000     1.358E-001    89.92    9.826E-003   119.44    3.185E-002   -68.72 
      0.1143    -2.0000     5.0000     4.666E-002    78.87    4.679E-003   100.46    7.761E-003   -90.03 
      0.1428    -2.0000     5.0000     1.182E-001    97.28    1.501E-002   120.33    1.830E-002   -71.92 
      0.1714    -2.0000     5.0000     8.401E-002    85.36    2.153E-003   -96.68    5.383E-003   -96.67 
      0.2000    -2.0000     5.0000     8.392E-002    84.14    2.316E-003   -97.91    5.791E-003   -97.90 
      0.2286    -2.0000     5.0000     8.381E-002    82.82    2.478E-003   -99.22    6.197E-003   -99.21 
      0.2571    -2.0000     5.0000     8.371E-002    81.42    2.640E-003  -100.63    6.601E-003  -100.62 
      0.2857    -2.0000     5.0000     8.359E-002    79.93    2.801E-003  -102.12    7.004E-003  -102.11 
      0.3143    -2.0000     5.0000     1.022E-001    83.60    1.171E-002   120.07    1.372E-002   -86.53 
      0.3428    -2.0000     5.0000     1.052E-001    78.42    1.931E-002  -101.50    5.758E-003    85.52 
      0.3714    -2.0000     5.0000     5.975E-002    87.63    2.023E-002  -124.34    7.181E-003    28.90 
      0.4000    -2.0000     5.0000     8.306E-002  -106.94    3.439E-003  -108.99    8.598E-003    71.01 
      0.4286    -2.0000     5.0000     9.516E-002    86.79    1.264E-002   152.05    1.315E-002   -82.43 
      0.4571    -2.0000     5.0000     8.276E-002    69.08    3.752E-003  -112.97    9.382E-003  -112.96 
      0.4857    -2.0000     5.0000     8.260E-002    66.97    3.908E-003  -115.09    9.771E-003  -115.08 
