






                              *****************************************

                                SUPER NUMERICAL ELECTROMAGNETICS CODE  

                              *****************************************




                                    - - - - COMMENTS - - - -


                         Computer generated SuperNEC file
                         The model has : 3 segments
                                         4 plates
                                         0 cylinders
                                         no symmetry
                         




                                - - - STRUCTURE SPECIFICATION - - -

                                    COORDINATES MUST BE INPUT IN
                                    METERS OR BE SCALED TO METERS
                                    BEFORE STRUCTURE INPUT IS ENDED


 WIRE                                                                               NO. OF    FIRST  LAST     TAG
 NO.        X1         Y1         Z1          X2         Y2         Z2      RADIUS   SEG.     SEG.   SEG.     NO.

	 -------------------------- UTD PLATE GEOMETRY -------------------------- 

		Dielectric covered plate 
			Dielectric layer number : 1
			Thickness                      = 1.000000 
			Conductivity                   = 0.010000 
			Relative permittivity          = 10.000000 
			Relative permeability          = 1.000000 

		Plate has 4 edges 
		Coordinates of corner 1 : ( 2.00, 100.00,  0.00) active
		Coordinates of corner 2 : ( 2.00, 100.00,  2.00) active
		Coordinates of corner 3 : ( 2.00, -10.00,  2.00) active
		Coordinates of corner 4 : ( 2.00, -10.00,  0.00) active

	 ------------------------------------------------------------------------ 


	 -------------------------- UTD PLATE GEOMETRY -------------------------- 

		Dielectric covered plate 
			Dielectric layer number : 1
			Thickness                      = 1.000000 
			Conductivity                   = 0.010000 
			Relative permittivity          = 10.000000 
			Relative permeability          = 1.000000 

		Plate has 4 edges 
		Coordinates of corner 1 : (-2.00, 100.00,  0.00) active
		Coordinates of corner 2 : (-2.00, 100.00,  2.00) active
		Coordinates of corner 3 : (-2.00, -10.00,  2.00) active
		Coordinates of corner 4 : (-2.00, -10.00,  0.00) active

	 ------------------------------------------------------------------------ 


	 -------------------------- UTD PLATE GEOMETRY -------------------------- 

		Dielectric covered plate 
			Dielectric layer number : 1
			Thickness                      = 1.000000 
			Conductivity                   = 0.010000 
			Relative permittivity          = 10.000000 
			Relative permeability          = 1.000000 

		Plate has 4 edges 
		Coordinates of corner 1 : ( 2.00, 100.00,  0.00) active
		Coordinates of corner 2 : (-2.00, 100.00,  0.00) active
		Coordinates of corner 3 : (-2.00, -10.00,  0.00) active
		Coordinates of corner 4 : ( 2.00, -10.00,  0.00) active

	 ------------------------------------------------------------------------ 


	 -------------------------- UTD PLATE GEOMETRY -------------------------- 

		Dielectric covered plate 
			Dielectric layer number : 1
			Thickness                      = 1.000000 
			Conductivity                   = 0.010000 
			Relative permittivity          = 10.000000 
			Relative permeability          = 1.000000 

		Plate has 4 edges 
		Coordinates of corner 1 : ( 2.00, 100.00,  2.00) active
		Coordinates of corner 2 : (-2.00, 100.00,  2.00) active
		Coordinates of corner 3 : (-2.00, -10.00,  2.00) active
		Coordinates of corner 4 : ( 2.00, -10.00,  2.00) active

	 ------------------------------------------------------------------------ 

    1    1.89000    0.00000    1.90000     1.89667    0.00000    1.90000    0.00100      1        1     1       0 
    2    1.89667    0.00000    1.90000     1.90333    0.00000    1.90000    0.00100      1        2     2       1 
    3    1.90333    0.00000    1.90000     1.91000    0.00000    1.90000    0.00100      1        3     3       0 


***** DATA CARD NO.  1   EK  -1     0     0     0  0.00000E+000 0.00000E+000 0.00000E+000 0.00000E+000 0.00000E+000 0.00000E+000   
***** DATA CARD NO.  2   KH   0     0     0     0  1.00000E+000 0.00000E+000 0.00000E+000 0.00000E+000 0.00000E+000 0.00000E+000   
***** DATA CARD NO.  3   PT  -2    -1    -1    -1  0.00000E+000 0.00000E+000 0.00000E+000 0.00000E+000 0.00000E+000 0.00000E+000   
***** DATA CARD NO.  4   PQ   0     0     0     0  0.00000E+000 0.00000E+000 0.00000E+000 0.00000E+000 0.00000E+000 0.00000E+000   
***** DATA CARD NO.  5   FC   1     1     0     0  0.00000E+000 0.00000E+000 0.00000E+000 0.00000E+000 0.00000E+000 0.00000E+000   
***** DATA CARD NO.  6   FC   1     1     1     1  0.00000E+000 0.00000E+000 0.00000E+000 0.00000E+000 0.00000E+000 0.00000E+000   
***** DATA CARD NO.  7   FC   3     0     0     0  0.00000E+000 0.00000E+000 0.00000E+000 0.00000E+000 0.00000E+000 0.00000E+000   
***** DATA CARD NO.  8   FC   1     1     0     0  0.00000E+000 0.00000E+000 0.00000E+000 0.00000E+000 0.00000E+000 0.00000E+000   
***** DATA CARD NO.  9   FC   1     1     0     0  0.00000E+000 0.00000E+000 0.00000E+000 0.00000E+000 0.00000E+000 0.00000E+000   
***** DATA CARD NO. 10   FC   1     1     0     0  0.00000E+000 0.00000E+000 0.00000E+000 0.00000E+000 0.00000E+000 0.00000E+000   



	 ----------------------- UTD FIELD COMPONENTS ------------------------ 

		General :
			Direct field
			Ground reflection

		Plate Field Components :
			Slope diffraction
			Corner diffraction
			Single reflection
			Single diffraction
			Double reflection

		Triple Plate Field Components :
			Reflection - reflection - reflection

		Cylinder End Cap Field Components :
			Diffraction
			Reflection

		Cylinder Field Components :
			Single reflection
			Single diffraction

		Cylinder - Plate Field Components :
			Plate reflection - cylinder reflection
			Cylinder reflection - plate reflection

	 ------------------------------------------------------------------------ 

***** DATA CARD NO. 11   FR   0     1     0     0  3.00000E+003 0.00000E+000 0.00000E+000 0.00000E+000 0.00000E+000 0.00000E+000   
***** DATA CARD NO. 12   EX   0     1     1     0  1.00000E+000 0.00000E+000 0.00000E+000 0.00000E+000 0.00000E+000 0.00000E+000   
***** DATA CARD NO. 13   XQ   0     0     0     0  0.00000E+000 0.00000E+000 0.00000E+000 0.00000E+000 0.00000E+000 0.00000E+000   

	 ----------------------------- PLATE CONNECTIONS ------------------------ 

		Plate 1 edge 4 joined to plate 3 edge 4
		Plate 1 edge 2 joined to plate 4 edge 4
		Plate 2 edge 4 joined to plate 3 edge 2
		Plate 2 edge 2 joined to plate 4 edge 2

	 ------------------------------------------------------------------------ 


    TOTAL SEGMENTS USED=    3     NO. SEG. IN A SYMMETRIC CELL=    3     SYMMETRY FLAG=  0


        - MULTIPLE WIRE JUNCTIONS -
JUNCTION    SEGMENTS  (- FOR END 1, + FOR END 2)
 NONE



                                - - - - SEGMENTATION DATA - - - -

                                       COORDINATES IN METERS

                        I+ AND I- INDICATE THE SEGMENTS BEFORE AND AFTER I


 SEG.   COORDINATES OF SEG. CENTER     SEG.     ORIENTATION ANGLES    WIRE    CONNECTION DATA   TAG
 NO.       X         Y         Z       LENGTH     ALPHA     BETA      RADIUS    I-   I    I+    NO.
    1   1.89333   0.00000   1.90000   0.00667    0.00000   0.00000   0.00100     0    1    2      0
    2   1.90000   0.00000   1.90000   0.00667    0.00000   0.00000   0.00100     1    2    3      1
    3   1.90667   0.00000   1.90000   0.00667    0.00000   0.00000   0.00100     2    3    0      0










                                    - - - - PLATE DATA - - - -

                                       COORDINATES IN METERS

		Plate 1 has 4 edges and 1 dielectric layers 
		Plate transparent : FALSE 

			Dielectric layer number : 1
			Thickness                      = 1.000000 
			Conductivity                   = 0.010000 
			Relative permittivity          = 10.000000 
			Relative permeability          = 1.000000 

		Coordinates of corner 1 :   2.00   100.00   0.00  active
		Coordinates of corner 2 :   2.00   100.00   2.00  active
		Coordinates of corner 3 :   2.00  -10.00   2.00  active
		Coordinates of corner 4 :   2.00  -10.00   0.00  active

		Plate 2 has 4 edges and 1 dielectric layers 
		Plate transparent : FALSE 

			Dielectric layer number : 1
			Thickness                      = 1.000000 
			Conductivity                   = 0.010000 
			Relative permittivity          = 10.000000 
			Relative permeability          = 1.000000 

		Coordinates of corner 1 :  -2.00   100.00   0.00  active
		Coordinates of corner 2 :  -2.00   100.00   2.00  active
		Coordinates of corner 3 :  -2.00  -10.00   2.00  active
		Coordinates of corner 4 :  -2.00  -10.00   0.00  active

		Plate 3 has 4 edges and 1 dielectric layers 
		Plate transparent : FALSE 

			Dielectric layer number : 1
			Thickness                      = 1.000000 
			Conductivity                   = 0.010000 
			Relative permittivity          = 10.000000 
			Relative permeability          = 1.000000 

		Coordinates of corner 1 :   2.00   100.00   0.00  active
		Coordinates of corner 2 :  -2.00   100.00   0.00  inactive
		Coordinates of corner 3 :  -2.00  -10.00   0.00  active
		Coordinates of corner 4 :   2.00  -10.00   0.00  inactive

		Plate 4 has 4 edges and 1 dielectric layers 
		Plate transparent : FALSE 

			Dielectric layer number : 1
			Thickness                      = 1.000000 
			Conductivity                   = 0.010000 
			Relative permittivity          = 10.000000 
			Relative permeability          = 1.000000 

		Coordinates of corner 1 :   2.00   100.00   2.00  active
		Coordinates of corner 2 :  -2.00   100.00   2.00  inactive
		Coordinates of corner 3 :  -2.00  -10.00   2.00  active
		Coordinates of corner 4 :   2.00  -10.00   2.00  inactive





                                  - - - - CYLINDER DATA - - - -

                                       COORDINATES IN METERS









                                - - - - - - FREQUENCY - - - - - -

                                   FREQUENCY= 3.0000E+003 MHZ 
                                   WAVELENGTH= 9.9933E-002 METERS 




                   APPROXIMATE INTEGRATION EMPLOYED FOR SEGMENTS MORE THAN    1.000 WAVELENGTHS APART



                              - - - STRUCTURE IMPEDANCE LOADING - - -

                                  THIS STRUCTURE IS NOT LOADED



                                 - - - ANTENNA ENVIRONMENT - - -

                                           FREE SPACE



                               - - - MATRIX TIMING - - -

                       FILL=    0.015 SEC.,  FACTOR=    0.000 SEC.



                                         - - - ANTENNA INPUT PARAMETERS - - -

  TAG   SEG.    VOLTAGE (VOLTS)         CURRENT (AMPS)         IMPEDANCE (OHMS)        ADMITTANCE (MHOS)      POWER
  NO.   NO.    REAL        IMAG.       REAL        IMAG.       REAL        IMAG.       REAL        IMAG.     (WATTS)
    1     2 1.0000E+000 0.0000E+000 1.5531E-004 3.5998E-003 1.1963E+001-2.7728E+002 1.5531E-004 3.5998E-003 7.7654E-005 



                            - - - CURRENTS AND LOCATION - - -

                                DISTANCES IN WAVELENGTHS


 SEG.  TAG    COORD. OF SEG. CENTER     SEG.            - - - CURRENT (AMPS) - - -
 NO.   NO.     X        Y        Z      LENGTH     REAL        IMAG.       MAG.        PHASE
    1    0  18.9460   0.0000  19.0127  0.06671   1.016E-004  1.672E-003  1.675E-003    86.523 
    2    1  19.0127   0.0000  19.0127  0.06670   1.553E-004  3.600E-003  3.603E-003    87.530 
    3    0  19.0794   0.0000  19.0127  0.06671   1.012E-004  1.670E-003  1.673E-003    86.534 



                                 - - - CHARGE DENSITIES - - -

                                   DISTANCES IN WAVELENGTHS


 SEG.  TAG    COORD. OF SEG. CENTER     SEG.          CHARGE DENSITY (COULOMBS/METER)
 NO.   NO.     X        Y        Z      LENGTH     REAL        IMAG.       MAG.        PHASE
    1    0  18.9460   0.0000  19.0127  0.06671  -2.213E-011  1.033E-012  2.215E-011  177.327 
    2    1  19.0127   0.0000  19.0127  0.06670   1.222E-014 -2.611E-015  1.250E-014  -12.060 
    3    0  19.0794   0.0000  19.0127  0.06671   2.212E-011 -1.031E-012  2.215E-011   -2.669 





                                       - - - POWER BUDGET - - -

                                          INPUT POWER   = 7.7654E-005 WATTS 
                                          RADIATED POWER= 7.7654E-005 WATTS 
                                          STRUCTURE LOSS= 0.0000E+000 WATTS 
                                          NETWORK LOSS  = 0.0000E+000 WATTS 
                                          EFFICIENCY    = 100.00 PERCENT






***** DATA CARD NO. 14   FC   1     1     0     0  0.00000E+000 0.00000E+000 0.00000E+000 0.00000E+000 0.00000E+000 0.00000E+000   
***** DATA CARD NO. 15   FC   1     1     1     1  0.00000E+000 0.00000E+000 0.00000E+000 0.00000E+000 0.00000E+000 0.00000E+000   
***** DATA CARD NO. 16   FC   6     0     0     0  0.00000E+000 0.00000E+000 0.00000E+000 0.00000E+000 0.00000E+000 0.00000E+000   
***** DATA CARD NO. 17   FC   1     1     0     0  0.00000E+000 0.00000E+000 0.00000E+000 0.00000E+000 0.00000E+000 0.00000E+000   
***** DATA CARD NO. 18   FC   1     1     0     0  0.00000E+000 0.00000E+000 0.00000E+000 0.00000E+000 0.00000E+000 0.00000E+000   
***** DATA CARD NO. 19   FC   1     1     0     0  0.00000E+000 0.00000E+000 0.00000E+000 0.00000E+000 0.00000E+000 0.00000E+000   



	 ----------------------- UTD FIELD COMPONENTS ------------------------ 

		General :
			Direct field
			Ground reflection

		Plate Field Components :
			Slope diffraction
			Corner diffraction
			Single reflection
			Single diffraction
			Double reflection

		Triple Plate Field Components :
			Reflection - reflection - reflection

		Cylinder End Cap Field Components :
			Diffraction
			Reflection

		Cylinder Field Components :
			Single reflection
			Single diffraction

		Cylinder - Plate Field Components :
			Plate reflection - cylinder reflection
			Cylinder reflection - plate reflection

	 ------------------------------------------------------------------------ 

***** DATA CARD NO. 20   NE   0    51     1    51  -2.00000E+000 5.00000E+001 0.00000E+000 8.00000E-002 0.00000E+000 4.00000E-002   



                                  - - - NEAR ELECTRIC FIELDS - - -

           -  LOCATION  -                     -  EX  -               -  EY  -               -  EZ  -
       X          Y          Z          MAGNITUDE   PHASE      MAGNITUDE   PHASE      MAGNITUDE   PHASE
     METERS     METERS     METERS        VOLTS/M   DEGREES      VOLTS/M   DEGREES      VOLTS/M   DEGREES
     -2.0000    50.0000     0.0000     1.665E-003    93.66    5.395E-005    83.60    6.588E-007    58.05 
     -1.9200    50.0000     0.0000     2.557E-003   108.98    1.964E-004   108.85    2.401E-006   -48.42 
     -1.8400    50.0000     0.0000     1.980E-003   137.89    1.484E-004   137.93    2.881E-006   -25.85 
     -1.7600    50.0000     0.0000     1.633E-003  -177.78    1.204E-004  -176.87    3.961E-006   -32.40 
     -1.6800    50.0000     0.0000     1.625E-003  -174.16    1.165E-004  -174.04    5.474E-006   -36.25 
     -1.6000    50.0000     0.0000     1.620E-003  -136.66    1.139E-004  -135.57    1.129E-005    13.42 
     -1.5200    50.0000     0.0000     1.981E-003  -139.79    1.357E-004  -139.75    2.636E-006    56.38 
     -1.4400    50.0000     0.0000     1.812E-003  -118.99    1.233E-004  -115.47    1.927E-004   -37.82 
     -1.3600    50.0000     0.0000     1.552E-003   -92.49    1.011E-004   -91.23    2.700E-007    27.35 
     -1.2800    50.0000     0.0000     1.625E-003   -77.00    1.034E-004   -76.90    3.131E-006   103.30 
     -1.2000    50.0000     0.0000     2.044E-003   -69.82    1.285E-004   -70.26    4.120E-006   107.72 
     -1.1200    50.0000     0.0000     1.016E-003   -53.39    6.244E-005   -53.75    1.819E-006   122.78 
     -1.0400    50.0000     0.0000     6.484E-004   -57.34    3.732E-005   -51.09    1.048E-004    58.12 
     -0.9600    50.0000     0.0000     1.627E-003    -7.48    9.315E-005    -7.35    2.822E-006   172.78 
     -0.8800    50.0000     0.0000     1.624E-003     8.70    9.048E-005     8.90    2.740E-006  -171.03 
     -0.8000    50.0000     0.0000     1.976E-003     8.18    1.067E-004     8.32    1.295E-006   -30.46 
     -0.7200    50.0000     0.0000     8.087E-004    41.17    4.251E-005    41.60    1.123E-006  -137.85 
     -0.6400    50.0000     0.0000     1.625E-003    54.68    8.270E-005    54.86    2.506E-006  -125.12 
     -0.5600    50.0000     0.0000     3.551E-004    36.33    1.562E-005    52.23    1.090E-004   157.75 
     -0.4800    50.0000     0.0000     2.125E-003    73.77    1.034E-004    73.36    3.341E-006  -108.43 
     -0.4000    50.0000     0.0000     1.871E-003    91.20    8.737E-005    90.98    2.743E-006   -90.28 
     -0.3200    50.0000     0.0000     2.219E-003   106.00    9.833E-005   106.74    1.374E-006   -63.25 
     -0.2400    50.0000     0.0000     2.838E-003   107.93    1.253E-004   107.51    3.070E-006   -69.06 
     -0.1600    50.0000     0.0000     2.189E-003   125.82    9.273E-005   125.36    3.012E-006   -56.26 
     -0.0800    50.0000     0.0000     1.406E-003   167.90    5.594E-005   170.50    2.534E-006   -51.13 
      0.0000    50.0000     0.0000     8.090E-004   156.34    3.118E-005   156.60    5.874E-007   166.68 
      0.0800    50.0000     0.0000     8.081E-004   167.32    2.983E-005   167.50    7.874E-007   -12.82 
      0.1600    50.0000     0.0000     1.650E-003  -170.29    5.702E-005  -168.88    2.484E-005   101.43 
      0.2400    50.0000     0.0000     6.403E-004  -175.18    4.807E-005  -168.06    1.511E-006    12.71 
      0.3200    50.0000     0.0000     2.772E-003  -175.02    8.783E-005  -174.97    7.513E-007    70.31 
      0.4000    50.0000     0.0000     1.669E-003  -142.85    6.225E-005   165.91    1.049E-006   -59.65 
      0.4800    50.0000     0.0000     2.701E-003  -163.91    6.988E-005  -162.88    2.391E-006   119.58 
      0.5600    50.0000     0.0000     1.075E-004  -132.28    2.226E-005    47.78    1.011E-006  -132.99 
      0.6400    50.0000     0.0000     1.762E-003  -128.06    4.341E-005  -128.92    6.720E-006    80.89 
      0.7200    50.0000     0.0000     6.464E-004   -67.74    3.703E-005   -64.56    2.331E-006   110.37 
      0.8000    50.0000     0.0000     1.257E-003   -89.47    2.757E-005  -107.79    6.011E-005   174.62 
      0.8800    50.0000     0.0000     8.376E-004  -120.81    2.818E-005   -52.87    9.758E-007   136.68 
      0.9600    50.0000     0.0000     3.380E-004    25.38    1.525E-005    77.55    2.515E-006  -104.30 
      1.0400    50.0000     0.0000     1.496E-003  -113.94    3.791E-005   -83.39    1.070E-004  -163.59 
      1.1200    50.0000     0.0000     9.944E-004   -86.41    1.585E-005  -106.99    1.420E-004    11.00 
      1.2000    50.0000     0.0000     4.713E-004  -110.58    1.770E-005   116.84    1.038E-006   -83.85 
      1.2800    50.0000     0.0000     1.997E-003   -92.28    2.482E-005   -92.26    4.788E-007   102.46 
      1.3600    50.0000     0.0000     7.706E-004    54.26    1.596E-005    63.21    2.484E-004  -129.41 
      1.4400    50.0000     0.0000     2.158E-003   -89.26    3.204E-005  -100.43    7.868E-007    81.87 
